
T2E3C 000:479 SEGGER J-Link V4.62 Log File (0002ms, 0195ms total)
T2E3C 000:479 DLL Compiled: Jan 25 2013 15:19:47 (0002ms, 0195ms total)
T2E3C 000:479 Logging started @ 2018-06-27 08:56 (0002ms, 0195ms total)
T2E3C 000:481 JLINK_SetWarnOutHandler(...) (0000ms, 0195ms total)
T2E3C 000:481 JLINK_OpenEx(...)
Firmware: J-Link V9 compiled Sep  1 2016 18:29:50
Hardware: V9.40
S/N: 59402570
Feature(s): RDI, GDB, FlashDL, FlashBP, JFlash  returns O.K. (0016ms, 0211ms total)
T2E3C 000:497 JLINK_SetErrorOutHandler(...) (0000ms, 0211ms total)
T2E3C 000:497 JLINK_ExecCommand("ProjectFile = "C:\Users\huangcaihui\Desktop\资料\SMT32F405_自动化测试\STM32_USB-Host-Device_Lib_V2.1.0_new\STM32_USB-Host-Device_Lib_V2.1.0\Project\USB_Device_Examples\DualCore\MDK-ARM\JLinkSettings.ini"", ...)  returns 0x00 (0033ms, 0244ms total)
T2E3C 000:530 JLINK_ExecCommand("Device = STM32F405RG", ...)
                JLINK_ExecCommand("map ram 0x20000000 - 0x2001FFFF", ...)  returns 0x00 (0000ms, 0000ms total)
                JLINK_AddMirrorAreaEx(Addr = 0x00000000, Size = 0x00000000) (0000ms, 0000ms total)
              Device "STM32F405RG" selected (1024 KB flash, 128 KB RAM).  returns 0x00 (0003ms, 0247ms total)
T2E3C 000:533 JLINK_ExecCommand("DisableConnectionTimeout", ...)  returns 0x00 (0000ms, 0247ms total)
T2E3C 000:533 JLINK_TIF_Select(JLINKARM_TIF_SWD)  returns 0x00 (0001ms, 0248ms total)
T2E3C 000:534 JLINK_SetSpeed(2000) (0000ms, 0248ms total)
T2E3C 000:534 JLINK_GetHardwareVersion()  returns 0x16F30 (0000ms, 0248ms total)
T2E3C 000:534 JLINK_GetDLLVersion()  returns 46200 (0000ms, 0248ms total)
T2E3C 000:534 JLINK_GetFirmwareString(...) (0000ms, 0248ms total)
T2E3C 000:534 JLINK_GetDLLVersion()  returns 46200 (0000ms, 0248ms total)
T2E3C 000:534 JLINK_GetCompileDateTime() (0000ms, 0248ms total)
T2E3C 000:534 JLINK_GetFirmwareString(...) (0000ms, 0248ms total)
T2E3C 000:534 JLINK_GetHardwareVersion()  returns 0x16F30 (0000ms, 0248ms total)
T2E3C 000:535 JLINK_SetResetType(JLINKARM_RESET_TYPE_NORMAL)  returns JLINKARM_RESET_TYPE_NORMAL (0000ms, 0248ms total)
T2E3C 000:535 JLINK_Reset()
  ***** Error: Supply voltage too low (1 Volt is required, Measured: 0.0 Volt).
Please check target power.STM32F2xxx/STM32F4xxx: Can not attach to CPU. Trying connect under reset.RESET (pin 15) high, but should be low. Please check target hardware.JLINK_GetId()  returns 0x00000000 (0000ms, 0653ms total)
T2E3C 000:940 JLINK_GetId()  returns 0x00000000 (0000ms, 0653ms total)
T2E3C 000:946 JLINK_GetFirmwareString(...) (0000ms, 0653ms total)
T2E3C 006:717 JLINK_Close() (0009ms, 0662ms total)
T2E3C 006:726 JLINK_Close() (0000ms, 0662ms total)
T2E3C 149:898 JLINK_IsOpen()  returns 0x00 (0000ms, 0662ms total)
T2E3C 149:898 JLINK_EMU_GetList(InterfaceMask = 0x00000001, MaxInfos = 0x00000004) [0]: USB, S/N: 59402570  returns 0x01 (0000ms, 0662ms total)
T2E3C 149:898 JLINK_Close() (0000ms, 0662ms total)
T2E3C 149:898 JLINK_EMU_SelectByUSBSN(SerialNo = 59402570)  returns 0x00 (0000ms, 0662ms total)
T2E3C 149:898 JLINK_OpenEx(...)
Firmware: J-Link V9 compiled Sep  1 2016 18:29:50
Hardware: V9.40
S/N: 59402570
Feature(s): RDI, GDB, FlashDL, FlashBP, JFlash  returns O.K. (0015ms, 0677ms total)
T2E3C 149:913 JLINK_TIF_GetAvailable(...) (0000ms, 0677ms total)
T2E3C 149:914 JLINK_GetEmuCaps()  returns 0xB9FF7BBF (0000ms, 0677ms total)
T2E3C 149:914 JLINK_IsOpen()  returns 0x01 (0000ms, 0677ms total)
T2E3C 149:914 JLINK_Close() (0103ms, 0780ms total)
T2E3C 150:017 JLINK_EMU_SelectByUSBSN(SerialNo = 59402570)  returns 0x00 (0001ms, 0781ms total)
T2E3C 150:018 JLINK_EnableLog(...) (0000ms, 0781ms total)
T2E3C 150:018 JLINK_SetWarnOutHandler(...) (0000ms, 0781ms total)
T2E3C 150:018 JLINK_OpenEx(...)
Firmware: J-Link V9 compiled Sep  1 2016 18:29:50
Hardware: V9.40
S/N: 59402570
Feature(s): RDI, GDB, FlashDL, FlashBP, JFlash  returns O.K. (0015ms, 0796ms total)
T2E3C 150:033 JLINK_SetErrorOutHandler(...) (0000ms, 0796ms total)
T2E3C 150:033 JLINK_ExecCommand("ProjectFile = "C:\Users\huangcaihui\Desktop\资料\SMT32F405_自动化测试\STM32_USB-Host-Device_Lib_V2.1.0_new\STM32_USB-Host-Device_Lib_V2.1.0\Project\USB_Device_Examples\DualCore\MDK-ARM\JLinkSettings.ini"", ...)  returns 0x00 (0000ms, 0796ms total)
T2E3C 150:042 JLINK_ExecCommand("Device = STM32F405RG", ...)
                JLINK_ExecCommand("map ram 0x20000000 - 0x2001FFFF", ...)  returns 0x00 (0000ms, 0000ms total)
                JLINK_AddMirrorAreaEx(Addr = 0x00000000, Size = 0x00000000) (0000ms, 0000ms total)
              Device "STM32F405RG" selected (1024 KB flash, 128 KB RAM).  returns 0x00 (0017ms, 0814ms total)
T2E3C 150:060 JLINK_ExecCommand("DisableConnectionTimeout", ...)  returns 0x00 (0000ms, 0814ms total)
T2E3C 150:060 JLINK_TIF_Select(JLINKARM_TIF_SWD)  returns 0x00 (0001ms, 0815ms total)
T2E3C 150:061 JLINK_SetSpeed(2000) (0000ms, 0815ms total)
T2E3C 150:061 JLINK_GetHardwareVersion()  returns 0x16F30 (0000ms, 0815ms total)
T2E3C 150:061 JLINK_GetDLLVersion()  returns 46200 (0000ms, 0815ms total)
T2E3C 150:061 JLINK_GetFirmwareString(...) (0000ms, 0815ms total)
T2E3C 150:110 JLINK_GetDLLVersion()  returns 46200 (0000ms, 0815ms total)
T2E3C 150:110 JLINK_GetCompileDateTime() (0000ms, 0815ms total)
T2E3C 150:131 JLINK_GetFirmwareString(...) (0000ms, 0815ms total)
T2E3C 150:138 JLINK_GetHardwareVersion()  returns 0x16F30 (0000ms, 0815ms total)
T2E3C 150:160 JLINK_GetId() >0x108 TIF>Found SWD-DP with ID 0x2BA01477 >0x0D TIF> >0x28 TIF> >0x0D TIF> >0x28 TIF> >0x0D TIF> >0x21 TIF> >0x0D TIF> >0x28 TIF> >0x0D TIF> >0x28 TIF> >0x0D TIF> >0x28 TIF> >0x0D TIF> >0x21 TIF> >0x0D TIF> >0x21 TIF> >0x0D TIF> >0x28 TIF> >0x0D TIF> >0x21 TIF> >0x0D TIF> >0x21 TIF> >0x0D TIF> >0x28 TIF> >0x0D TIF> >0x28 TIF> >0x0D TIF> >0x28 TIF> >0x0D TIF> >0x21 TIF> >0x0D TIF> >0x21 TIF> >0x0D TIF> >0x28 TIF> >0x0D TIF> >0x28 TIF> >0x108 TIF>Found SWD-DP with ID 0x2BA01477
 >0x0D TIF> >0x21 TIF> >0x0D TIF> >0x28 TIF> >0x0D TIF> >0x28 TIF> >0x0D TIF> >0x21 TIF> >0x0D TIF> >0x21 TIF> >0x0D TIF> >0x28 TIF> >0x0D TIF> >0x21 TIF> >0x0D TIF> >0x21 TIF> >0x0D TIF> >0x21 TIF> >0x0D TIF> >0x21 TIF> >0x0D TIF> >0x21 TIF> >0x0D TIF> >0x28 TIF> >0x0D TIF> >0x28 TIF> >0x0D TIF> >0x21 TIF> >0x0D TIF> >0x21 TIF> >0x0D TIF> >0x28 TIF> >0x0D TIF> >0x21 TIF> >0x0D TIF> >0x21 TIF> >0x0D TIF> >0x28 TIF> >0x0D TIF> >0x28 TIF> >0x0D TIF> >0x28 TIF> >0x0D TIF> >0x21 TIF> >0x0D TIF> >0x21 TIF>
 >0x0D TIF> >0x28 TIF> >0x0D TIF> >0x28 TIF> >0x0D TIF> >0x28 TIF> >0x0D TIF> >0x28 TIF> >0x0D TIF> >0x28 TIF> >0x0D TIF> >0x21 TIF> >0x0D TIF> >0x21 TIF> >0x0D TIF> >0x21 TIF>TPIU fitted.ETM fitted. >0x0D TIF> >0x28 TIF> >0x0D TIF> >0x21 TIF> >0x0D TIF> >0x21 TIF> >0x0D TIF> >0x28 TIF> >0x0D TIF> >0x21 TIF> >0x0D TIF> >0x21 TIF>FPUnit: 6 code (BP) slots and 2 literal slots >0x0D TIF> >0x28 TIF> >0x0D TIF> >0x21 TIF> >0x0D TIF> >0x21 TIF> >0x0D TIF> >0x28 TIF> >0x0D TIF> >0x28 TIF> >0x0D TIF> >0x28 TIF>
 >0x0D TIF> >0x21 TIF> >0x0D TIF> >0x21 TIF> >0x0D TIF> >0x28 TIF> >0x0D TIF> >0x21 TIF> >0x0D TIF> >0x21 TIF> >0x0D TIF> >0x28 TIF> >0x0D TIF> >0x21 TIF> >0x0D TIF> >0x21 TIF>Found Cortex-M4 r0p1, Little endian. >0x0D TIF> >0x21 TIF>  returns 0x2BA01477 (0057ms, 0872ms total)
T2E3C 150:217 JLINK_GetDeviceFamily()  returns 14 (0000ms, 0872ms total)
T2E3C 150:220 JLINK_ReadMem (0xE00FFFF0, 0x0010 Bytes, ...) -- CPU is running -- CPU_ReadMem(16 bytes @ 0xE00FFFF0) -- Data:  0D 00 00 00 10 00 00 00 05 00 00 00 B1 00 00 00  returns 0x00 (0001ms, 0873ms total)
T2E3C 150:221 JLINK_ReadMem (0xE00FFFD0, 0x0020 Bytes, ...) -- CPU is running -- CPU_ReadMem(32 bytes @ 0xE00FFFD0) -- Data:  00 00 00 00 00 00 00 00 00 00 00 00 00 00 00 00 ...  returns 0x00 (0001ms, 0874ms total)
T2E3C 150:222 JLINK_ReadMem (0xE00FF000, 0x0018 Bytes, ...) -- CPU is running -- CPU_ReadMem(24 bytes @ 0xE00FF000) -- Data:  03 F0 F0 FF 03 20 F0 FF 03 30 F0 FF 03 10 F0 FF ...  returns 0x00 (0001ms, 0875ms total)
T2E3C 150:223 JLINK_ReadMemU32(0xE000ED00, 0x0001 Items, ...) -- CPU is running -- CPU_ReadMem(4 bytes @ 0xE000ED00) -- Data:  41 C2 0F 41  returns 0x01 (0000ms, 0875ms total)
T2E3C 150:223 JLINK_ReadMemU32(0xE000EF40, 0x0001 Items, ...) -- CPU is running -- CPU_ReadMem(4 bytes @ 0xE000EF40) -- Data:  21 00 11 10  returns 0x01 (0001ms, 0876ms total)
T2E3C 150:224 JLINK_ReadMemU32(0xE000EF44, 0x0001 Items, ...) -- CPU is running -- CPU_ReadMem(4 bytes @ 0xE000EF44) -- Data:  11 00 00 11  returns 0x01 (0000ms, 0876ms total)
T2E3C 150:224 JLINK_SetResetType(JLINKARM_RESET_TYPE_NORMAL)  returns JLINKARM_RESET_TYPE_NORMAL (0000ms, 0876ms total)
T2E3C 150:224 JLINK_Reset() -- CPU is running -- CPU_WriteMem(4 bytes @ 0xE000EDF0) -- CPU is running -- CPU_WriteMem(4 bytes @ 0xE000EDFC) >0x35 TIF> -- CPU is running -- CPU_WriteMem(4 bytes @ 0xE000ED0C) -- CPU is running -- CPU_ReadMem(4 bytes @ 0xE000EDF0) -- CPU is running -- CPU_ReadMem(4 bytes @ 0xE000EDF0) -- CPU is running -- CPU_WriteMem(4 bytes @ 0xE000EDF0) -- CPU is running -- CPU_WriteMem(4 bytes @ 0xE000EDFC) -- CPU is running -- CPU_ReadMem(4 bytes @ 0xE000EDF0)
 -- CPU_WriteMem(4 bytes @ 0xE0002000) (0020ms, 0896ms total)
T2E3C 150:244 JLINK_Halt()  returns 0x00 (0000ms, 0896ms total)
T2E3C 150:244 JLINK_IsHalted()  returns TRUE (0000ms, 0896ms total)
T2E3C 150:244 JLINK_ReadMemU32(0xE000EDF0, 0x0001 Items, ...) -- CPU_ReadMem(4 bytes @ 0xE000EDF0) -- Data:  03 00 03 00  returns 0x01 (0001ms, 0897ms total)
T2E3C 150:245 JLINK_WriteU32(0xE000EDF0, 0xA05F0003) -- CPU_WriteMem(4 bytes @ 0xE000EDF0)  returns 0x00 (0000ms, 0897ms total)
T2E3C 150:245 JLINK_WriteU32(0xE000EDFC, 0x01000000) -- CPU_WriteMem(4 bytes @ 0xE000EDFC)  returns 0x00 (0001ms, 0898ms total)
T2E3C 150:321 JLINK_GetHWStatus(...)  returns 0x00 (0000ms, 0898ms total)
T2E3C 150:356 JLINK_GetNumBPUnits(Type = 0xFFFFFF00)  returns 0x06 (0000ms, 0898ms total)
T2E3C 150:356 JLINK_GetNumBPUnits(Type = 0xF0)  returns 0x2000 (0000ms, 0898ms total)
T2E3C 150:356 JLINK_GetNumWPUnits()  returns 0x04 (0000ms, 0898ms total)
T2E3C 150:377 JLINK_GetSpeed()  returns 0x7D0 (0001ms, 0899ms total)
T2E3C 150:395 JLINK_ReadMemU32(0xE000E004, 0x0001 Items, ...) -- CPU_ReadMem(4 bytes @ 0xE000E004) -- Data:  02 00 00 00  returns 0x01 (0001ms, 0900ms total)
T2E3C 150:396 JLINK_ReadMemU32(0xE000E004, 0x0001 Items, ...) -- CPU_ReadMem(4 bytes @ 0xE000E004) -- Data:  02 00 00 00  returns 0x01 (0001ms, 0901ms total)
T2E3C 150:397 JLINK_WriteMem(0xE0001000, 0x001C Bytes, ...) -- Data:  01 00 00 00 00 00 00 00 00 00 00 00 00 00 00 00 ... -- CPU_WriteMem(28 bytes @ 0xE0001000)  returns 0x1C (0001ms, 0902ms total)
T2E3C 150:398 JLINK_ReadMem (0xE0001000, 0x001C Bytes, ...) -- CPU_ReadMem(28 bytes @ 0xE0001000) -- Data:  01 00 00 40 00 00 00 00 00 00 00 00 00 00 00 00 ...  returns 0x00 (0000ms, 0902ms total)
T2E3C 150:399 JLINK_Halt()  returns 0x00 (0000ms, 0902ms total)
T2E3C 150:399 JLINK_IsHalted()  returns TRUE (0000ms, 0902ms total)
T2E3C 150:404 JLINK_WriteMem(0x20000000, 0x0180 Bytes, ...) -- Data:  00 BE 0A E0 0D 78 2D 06 68 40 08 24 40 00 00 D3 ... -- CPU_WriteMem(384 bytes @ 0x20000000)  returns 0x180 (0005ms, 0907ms total)
T2E3C 150:410 JLINK_WriteReg(R0, 0x08000000)  returns 0x00 (0000ms, 0907ms total)
T2E3C 150:410 JLINK_WriteReg(R1, 0x017D7840)  returns 0x00 (0000ms, 0907ms total)
T2E3C 150:410 JLINK_WriteReg(R2, 0x00000001)  returns 0x00 (0000ms, 0907ms total)
T2E3C 150:410 JLINK_WriteReg(R3, 0x00000000)  returns 0x00 (0000ms, 0907ms total)
T2E3C 150:410 JLINK_WriteReg(R4, 0x00000000)  returns 0x00 (0000ms, 0907ms total)
T2E3C 150:410 JLINK_WriteReg(R5, 0x00000000)  returns 0x00 (0000ms, 0907ms total)
T2E3C 150:410 JLINK_WriteReg(R6, 0x00000000)  returns 0x00 (0000ms, 0907ms total)
T2E3C 150:410 JLINK_WriteReg(R7, 0x00000000)  returns 0x00 (0000ms, 0907ms total)
T2E3C 150:410 JLINK_WriteReg(R8, 0x00000000)  returns 0x00 (0000ms, 0907ms total)
T2E3C 150:410 JLINK_WriteReg(R9, 0x2000017C)  returns 0x00 (0000ms, 0907ms total)
T2E3C 150:410 JLINK_WriteReg(R10, 0x00000000)  returns 0x00 (0000ms, 0907ms total)
T2E3C 150:410 JLINK_WriteReg(R11, 0x00000000)  returns 0x00 (0000ms, 0907ms total)
T2E3C 150:410 JLINK_WriteReg(R12, 0x00000000)  returns 0x00 (0000ms, 0907ms total)
T2E3C 150:410 JLINK_WriteReg(R13, 0x20000800)  returns 0x00 (0000ms, 0907ms total)
T2E3C 150:410 JLINK_WriteReg(R14, 0x20000001)  returns 0x00 (0000ms, 0907ms total)
T2E3C 150:410 JLINK_WriteReg(R15, 0x20000054)  returns 0x00 (0000ms, 0907ms total)
T2E3C 150:410 JLINK_WriteReg(XPSR, 0x01000000)  returns 0x00 (0000ms, 0907ms total)
T2E3C 150:410 JLINK_WriteReg(MSP, 0x20000800)  returns 0x00 (0000ms, 0907ms total)
T2E3C 150:410 JLINK_WriteReg(PSP, 0x20000800)  returns 0x00 (0000ms, 0907ms total)
T2E3C 150:410 JLINK_WriteReg(CFBP, 0x00000000)  returns 0x00 (0000ms, 0907ms total)
T2E3C 150:410 JLINK_SetBPEx(Addr = 0x20000000, Type = 0xFFFFFFF2) -- CPU_ReadMem(2 bytes @ 0x20000000)  returns 0x00000001 (0001ms, 0908ms total)
T2E3C 150:411 JLINK_Go() -- CPU_WriteMem(2 bytes @ 0x20000000) -- CPU_WriteMem(4 bytes @ 0xE0002008) -- CPU_WriteMem(4 bytes @ 0xE000200C) -- CPU_WriteMem(4 bytes @ 0xE0002010) -- CPU_WriteMem(4 bytes @ 0xE0002014) -- CPU_WriteMem(4 bytes @ 0xE0002018) -- CPU_WriteMem(4 bytes @ 0xE000201C) (0006ms, 0914ms total)
T2E3C 150:417 JLINK_IsHalted() -- CPU_ReadMem(2 bytes @ 0x20000000)  returns TRUE (0006ms, 0920ms total)
T2E3C 150:423 JLINK_ReadReg(R15)  returns 0x20000000 (0000ms, 0914ms total)
T2E3C 150:423 JLINK_ClrBPEx(BPHandle = 0x00000001)  returns 0x00 (0000ms, 0914ms total)
T2E3C 150:423 JLINK_ReadReg(R0)  returns 0x00000000 (0000ms, 0914ms total)
T2E3C 150:428 JLINK_WriteReg(R0, 0x08000000)  returns 0x00 (0000ms, 0914ms total)
T2E3C 150:428 JLINK_WriteReg(R1, 0x00004000)  returns 0x00 (0000ms, 0914ms total)
T2E3C 150:428 JLINK_WriteReg(R2, 0x000000FF)  returns 0x00 (0001ms, 0915ms total)
T2E3C 150:429 JLINK_WriteReg(R3, 0x00000000)  returns 0x00 (0000ms, 0915ms total)
T2E3C 150:429 JLINK_WriteReg(R4, 0x00000000)  returns 0x00 (0000ms, 0915ms total)
T2E3C 150:429 JLINK_WriteReg(R5, 0x00000000)  returns 0x00 (0000ms, 0915ms total)
T2E3C 150:429 JLINK_WriteReg(R6, 0x00000000)  returns 0x00 (0000ms, 0915ms total)
T2E3C 150:429 JLINK_WriteReg(R7, 0x00000000)  returns 0x00 (0000ms, 0915ms total)
T2E3C 150:429 JLINK_WriteReg(R8, 0x00000000)  returns 0x00 (0000ms, 0915ms total)
T2E3C 150:429 JLINK_WriteReg(R9, 0x2000017C)  returns 0x00 (0000ms, 0915ms total)
T2E3C 150:429 JLINK_WriteReg(R10, 0x00000000)  returns 0x00 (0000ms, 0915ms total)
T2E3C 150:429 JLINK_WriteReg(R11, 0x00000000)  returns 0x00 (0000ms, 0915ms total)
T2E3C 150:429 JLINK_WriteReg(R12, 0x00000000)  returns 0x00 (0000ms, 0915ms total)
T2E3C 150:429 JLINK_WriteReg(R13, 0x20000800)  returns 0x00 (0000ms, 0915ms total)
T2E3C 150:429 JLINK_WriteReg(R14, 0x20000001)  returns 0x00 (0000ms, 0915ms total)
T2E3C 150:429 JLINK_WriteReg(R15, 0x20000020)  returns 0x00 (0000ms, 0915ms total)
T2E3C 150:429 JLINK_WriteReg(XPSR, 0x01000000)  returns 0x00 (0000ms, 0915ms total)
T2E3C 150:429 JLINK_WriteReg(MSP, 0x20000800)  returns 0x00 (0000ms, 0915ms total)
T2E3C 150:429 JLINK_WriteReg(PSP, 0x20000800)  returns 0x00 (0000ms, 0915ms total)
T2E3C 150:429 JLINK_WriteReg(CFBP, 0x00000000)  returns 0x00 (0000ms, 0915ms total)
T2E3C 150:429 JLINK_SetBPEx(Addr = 0x20000000, Type = 0xFFFFFFF2)  returns 0x00000002 (0000ms, 0915ms total)
T2E3C 150:429 JLINK_Go() (0002ms, 0917ms total)
T2E3C 150:431 JLINK_IsHalted() -- CPU_ReadMem(2 bytes @ 0x20000000)  returns TRUE (0006ms, 0923ms total)
T2E3C 150:437 JLINK_ReadReg(R15)  returns 0x20000000 (0000ms, 0917ms total)
T2E3C 150:437 JLINK_ClrBPEx(BPHandle = 0x00000002)  returns 0x00 (0000ms, 0917ms total)
T2E3C 150:437 JLINK_ReadReg(R0)  returns 0x00000001 (0000ms, 0917ms total)
T2E3C 150:438 JLINK_WriteReg(R0, 0x08000000)  returns 0x00 (0000ms, 0918ms total)
T2E3C 150:438 JLINK_WriteReg(R1, 0x00004000)  returns 0x00 (0000ms, 0918ms total)
T2E3C 150:438 JLINK_WriteReg(R2, 0x000000FF)  returns 0x00 (0000ms, 0918ms total)
T2E3C 150:438 JLINK_WriteReg(R3, 0x00000000)  returns 0x00 (0000ms, 0918ms total)
T2E3C 150:438 JLINK_WriteReg(R4, 0x00000000)  returns 0x00 (0000ms, 0918ms total)
T2E3C 150:438 JLINK_WriteReg(R5, 0x00000000)  returns 0x00 (0000ms, 0918ms total)
T2E3C 150:438 JLINK_WriteReg(R6, 0x00000000)  returns 0x00 (0000ms, 0918ms total)
T2E3C 150:438 JLINK_WriteReg(R7, 0x00000000)  returns 0x00 (0000ms, 0918ms total)
T2E3C 150:438 JLINK_WriteReg(R8, 0x00000000)  returns 0x00 (0000ms, 0918ms total)
T2E3C 150:438 JLINK_WriteReg(R9, 0x2000017C)  returns 0x00 (0000ms, 0918ms total)
T2E3C 150:438 JLINK_WriteReg(R10, 0x00000000)  returns 0x00 (0000ms, 0918ms total)
T2E3C 150:438 JLINK_WriteReg(R11, 0x00000000)  returns 0x00 (0000ms, 0918ms total)
T2E3C 150:438 JLINK_WriteReg(R12, 0x00000000)  returns 0x00 (0000ms, 0918ms total)
T2E3C 150:438 JLINK_WriteReg(R13, 0x20000800)  returns 0x00 (0000ms, 0918ms total)
T2E3C 150:438 JLINK_WriteReg(R14, 0x20000001)  returns 0x00 (0000ms, 0918ms total)
T2E3C 150:438 JLINK_WriteReg(R15, 0x200000BC)  returns 0x00 (0000ms, 0918ms total)
T2E3C 150:438 JLINK_WriteReg(XPSR, 0x01000000)  returns 0x00 (0000ms, 0918ms total)
T2E3C 150:438 JLINK_WriteReg(MSP, 0x20000800)  returns 0x00 (0000ms, 0918ms total)
T2E3C 150:438 JLINK_WriteReg(PSP, 0x20000800)  returns 0x00 (0000ms, 0918ms total)
T2E3C 150:438 JLINK_WriteReg(CFBP, 0x00000000)  returns 0x00 (0000ms, 0918ms total)
T2E3C 150:438 JLINK_SetBPEx(Addr = 0x20000000, Type = 0xFFFFFFF2)  returns 0x00000003 (0000ms, 0918ms total)
T2E3C 150:438 JLINK_Go() (0002ms, 0920ms total)
T2E3C 150:440 JLINK_IsHalted()  returns FALSE (0001ms, 0921ms total)
T2E3C 150:710 JLINK_IsHalted()  returns FALSE (0000ms, 0920ms total)
T2E3C 150:835 JLINK_IsHalted() -- CPU_ReadMem(2 bytes @ 0x20000000)  returns TRUE (0005ms, 0925ms total)
T2E3C 150:840 JLINK_ReadReg(R15)  returns 0x20000000 (0000ms, 0920ms total)
T2E3C 150:840 JLINK_ClrBPEx(BPHandle = 0x00000003)  returns 0x00 (0000ms, 0920ms total)
T2E3C 150:841 JLINK_ReadReg(R0)  returns 0x00000000 (0000ms, 0921ms total)
T2E3C 150:841 JLINK_WriteReg(R0, 0x08004000)  returns 0x00 (0000ms, 0921ms total)
T2E3C 150:841 JLINK_WriteReg(R1, 0x00004000)  returns 0x00 (0000ms, 0921ms total)
T2E3C 150:841 JLINK_WriteReg(R2, 0x000000FF)  returns 0x00 (0000ms, 0921ms total)
T2E3C 150:841 JLINK_WriteReg(R3, 0x00000000)  returns 0x00 (0000ms, 0921ms total)
T2E3C 150:841 JLINK_WriteReg(R4, 0x00000000)  returns 0x00 (0000ms, 0921ms total)
T2E3C 150:841 JLINK_WriteReg(R5, 0x00000000)  returns 0x00 (0000ms, 0921ms total)
T2E3C 150:841 JLINK_WriteReg(R6, 0x00000000)  returns 0x00 (0000ms, 0921ms total)
T2E3C 150:841 JLINK_WriteReg(R7, 0x00000000)  returns 0x00 (0000ms, 0921ms total)
T2E3C 150:841 JLINK_WriteReg(R8, 0x00000000)  returns 0x00 (0000ms, 0921ms total)
T2E3C 150:841 JLINK_WriteReg(R9, 0x2000017C)  returns 0x00 (0000ms, 0921ms total)
T2E3C 150:841 JLINK_WriteReg(R10, 0x00000000)  returns 0x00 (0000ms, 0921ms total)
T2E3C 150:841 JLINK_WriteReg(R11, 0x00000000)  returns 0x00 (0000ms, 0921ms total)
T2E3C 150:841 JLINK_WriteReg(R12, 0x00000000)  returns 0x00 (0000ms, 0921ms total)
T2E3C 150:841 JLINK_WriteReg(R13, 0x20000800)  returns 0x00 (0000ms, 0921ms total)
T2E3C 150:841 JLINK_WriteReg(R14, 0x20000001)  returns 0x00 (0000ms, 0921ms total)
T2E3C 150:841 JLINK_WriteReg(R15, 0x20000020)  returns 0x00 (0001ms, 0922ms total)
T2E3C 150:842 JLINK_WriteReg(XPSR, 0x01000000)  returns 0x00 (0000ms, 0922ms total)
T2E3C 150:842 JLINK_WriteReg(MSP, 0x20000800)  returns 0x00 (0000ms, 0922ms total)
T2E3C 150:842 JLINK_WriteReg(PSP, 0x20000800)  returns 0x00 (0000ms, 0922ms total)
T2E3C 150:842 JLINK_WriteReg(CFBP, 0x00000000)  returns 0x00 (0000ms, 0922ms total)
T2E3C 150:842 JLINK_SetBPEx(Addr = 0x20000000, Type = 0xFFFFFFF2)  returns 0x00000004 (0000ms, 0922ms total)
T2E3C 150:842 JLINK_Go() (0002ms, 0924ms total)
T2E3C 150:844 JLINK_IsHalted() -- CPU_ReadMem(2 bytes @ 0x20000000)  returns TRUE (0006ms, 0930ms total)
T2E3C 150:850 JLINK_ReadReg(R15)  returns 0x20000000 (0000ms, 0924ms total)
T2E3C 150:850 JLINK_ClrBPEx(BPHandle = 0x00000004)  returns 0x00 (0000ms, 0924ms total)
T2E3C 150:850 JLINK_ReadReg(R0)  returns 0x00000001 (0000ms, 0924ms total)
T2E3C 150:850 JLINK_WriteReg(R0, 0x08004000)  returns 0x00 (0000ms, 0924ms total)
T2E3C 150:850 JLINK_WriteReg(R1, 0x00004000)  returns 0x00 (0000ms, 0924ms total)
T2E3C 150:850 JLINK_WriteReg(R2, 0x000000FF)  returns 0x00 (0000ms, 0924ms total)
T2E3C 150:850 JLINK_WriteReg(R3, 0x00000000)  returns 0x00 (0000ms, 0924ms total)
T2E3C 150:850 JLINK_WriteReg(R4, 0x00000000)  returns 0x00 (0000ms, 0924ms total)
T2E3C 150:850 JLINK_WriteReg(R5, 0x00000000)  returns 0x00 (0000ms, 0924ms total)
T2E3C 150:850 JLINK_WriteReg(R6, 0x00000000)  returns 0x00 (0000ms, 0924ms total)
T2E3C 150:850 JLINK_WriteReg(R7, 0x00000000)  returns 0x00 (0000ms, 0924ms total)
T2E3C 150:850 JLINK_WriteReg(R8, 0x00000000)  returns 0x00 (0000ms, 0924ms total)
T2E3C 150:850 JLINK_WriteReg(R9, 0x2000017C)  returns 0x00 (0000ms, 0924ms total)
T2E3C 150:850 JLINK_WriteReg(R10, 0x00000000)  returns 0x00 (0000ms, 0924ms total)
T2E3C 150:850 JLINK_WriteReg(R11, 0x00000000)  returns 0x00 (0001ms, 0925ms total)
T2E3C 150:851 JLINK_WriteReg(R12, 0x00000000)  returns 0x00 (0000ms, 0925ms total)
T2E3C 150:851 JLINK_WriteReg(R13, 0x20000800)  returns 0x00 (0000ms, 0925ms total)
T2E3C 150:851 JLINK_WriteReg(R14, 0x20000001)  returns 0x00 (0000ms, 0925ms total)
T2E3C 150:851 JLINK_WriteReg(R15, 0x200000BC)  returns 0x00 (0000ms, 0925ms total)
T2E3C 150:851 JLINK_WriteReg(XPSR, 0x01000000)  returns 0x00 (0000ms, 0925ms total)
T2E3C 150:851 JLINK_WriteReg(MSP, 0x20000800)  returns 0x00 (0000ms, 0925ms total)
T2E3C 150:851 JLINK_WriteReg(PSP, 0x20000800)  returns 0x00 (0000ms, 0925ms total)
T2E3C 150:851 JLINK_WriteReg(CFBP, 0x00000000)  returns 0x00 (0000ms, 0925ms total)
T2E3C 150:851 JLINK_SetBPEx(Addr = 0x20000000, Type = 0xFFFFFFF2)  returns 0x00000005 (0000ms, 0925ms total)
T2E3C 150:851 JLINK_Go() (0002ms, 0927ms total)
T2E3C 150:853 JLINK_IsHalted()  returns FALSE (0000ms, 0927ms total)
T2E3C 150:875 JLINK_IsHalted()  returns FALSE (0001ms, 0928ms total)
T2E3C 150:883 JLINK_IsHalted()  returns FALSE (0001ms, 0928ms total)
T2E3C 150:889 JLINK_IsHalted()  returns FALSE (0000ms, 0927ms total)
T2E3C 150:891 JLINK_IsHalted()  returns FALSE (0000ms, 0927ms total)
T2E3C 150:893 JLINK_IsHalted()  returns FALSE (0000ms, 0927ms total)
T2E3C 150:895 JLINK_IsHalted()  returns FALSE (0000ms, 0927ms total)
T2E3C 150:897 JLINK_IsHalted()  returns FALSE (0000ms, 0927ms total)
T2E3C 150:899 JLINK_IsHalted()  returns FALSE (0000ms, 0927ms total)
T2E3C 150:901 JLINK_IsHalted()  returns FALSE (0000ms, 0927ms total)
T2E3C 150:903 JLINK_IsHalted()  returns FALSE (0000ms, 0927ms total)
T2E3C 150:905 JLINK_IsHalted()  returns FALSE (0000ms, 0927ms total)
T2E3C 150:907 JLINK_IsHalted()  returns FALSE (0000ms, 0927ms total)
T2E3C 150:909 JLINK_IsHalted()  returns FALSE (0000ms, 0927ms total)
T2E3C 150:911 JLINK_IsHalted()  returns FALSE (0000ms, 0927ms total)
T2E3C 150:913 JLINK_IsHalted()  returns FALSE (0000ms, 0927ms total)
T2E3C 150:915 JLINK_IsHalted()  returns FALSE (0000ms, 0927ms total)
T2E3C 150:917 JLINK_IsHalted()  returns FALSE (0000ms, 0927ms total)
T2E3C 150:919 JLINK_IsHalted()  returns FALSE (0000ms, 0927ms total)
T2E3C 150:921 JLINK_IsHalted()  returns FALSE (0000ms, 0927ms total)
T2E3C 150:923 JLINK_IsHalted()  returns FALSE (0000ms, 0927ms total)
T2E3C 151:007 JLINK_IsHalted()  returns FALSE (0000ms, 0927ms total)
T2E3C 151:009 JLINK_IsHalted()  returns FALSE (0000ms, 0927ms total)
T2E3C 151:011 JLINK_IsHalted()  returns FALSE (0000ms, 0927ms total)
T2E3C 151:013 JLINK_IsHalted()  returns FALSE (0000ms, 0927ms total)
T2E3C 151:168 JLINK_IsHalted()  returns FALSE (0000ms, 0927ms total)
T2E3C 151:170 JLINK_IsHalted()  returns FALSE (0000ms, 0927ms total)
T2E3C 151:172 JLINK_IsHalted()  returns FALSE (0000ms, 0927ms total)
T2E3C 151:174 JLINK_IsHalted()  returns FALSE (0000ms, 0927ms total)
T2E3C 151:251 JLINK_IsHalted() -- CPU_ReadMem(2 bytes @ 0x20000000)  returns TRUE (0006ms, 0933ms total)
T2E3C 151:257 JLINK_ReadReg(R15)  returns 0x20000000 (0000ms, 0927ms total)
T2E3C 151:257 JLINK_ClrBPEx(BPHandle = 0x00000005)  returns 0x00 (0000ms, 0927ms total)
T2E3C 151:257 JLINK_ReadReg(R0)  returns 0x00000000 (0000ms, 0927ms total)
T2E3C 151:259 JLINK_WriteReg(R0, 0x00000001)  returns 0x00 (0000ms, 0927ms total)
T2E3C 151:259 JLINK_WriteReg(R1, 0x00004000)  returns 0x00 (0000ms, 0927ms total)
T2E3C 151:259 JLINK_WriteReg(R2, 0x000000FF)  returns 0x00 (0000ms, 0927ms total)
T2E3C 151:259 JLINK_WriteReg(R3, 0x00000000)  returns 0x00 (0000ms, 0927ms total)
T2E3C 151:259 JLINK_WriteReg(R4, 0x00000000)  returns 0x00 (0000ms, 0927ms total)
T2E3C 151:259 JLINK_WriteReg(R5, 0x00000000)  returns 0x00 (0000ms, 0927ms total)
T2E3C 151:259 JLINK_WriteReg(R6, 0x00000000)  returns 0x00 (0000ms, 0927ms total)
T2E3C 151:259 JLINK_WriteReg(R7, 0x00000000)  returns 0x00 (0000ms, 0927ms total)
T2E3C 151:259 JLINK_WriteReg(R8, 0x00000000)  returns 0x00 (0000ms, 0927ms total)
T2E3C 151:259 JLINK_WriteReg(R9, 0x2000017C)  returns 0x00 (0000ms, 0927ms total)
T2E3C 151:259 JLINK_WriteReg(R10, 0x00000000)  returns 0x00 (0000ms, 0927ms total)
T2E3C 151:259 JLINK_WriteReg(R11, 0x00000000)  returns 0x00 (0000ms, 0927ms total)
T2E3C 151:259 JLINK_WriteReg(R12, 0x00000000)  returns 0x00 (0000ms, 0927ms total)
T2E3C 151:259 JLINK_WriteReg(R13, 0x20000800)  returns 0x00 (0000ms, 0927ms total)
T2E3C 151:259 JLINK_WriteReg(R14, 0x20000001)  returns 0x00 (0000ms, 0927ms total)
T2E3C 151:259 JLINK_WriteReg(R15, 0x20000082)  returns 0x00 (0000ms, 0927ms total)
T2E3C 151:259 JLINK_WriteReg(XPSR, 0x01000000)  returns 0x00 (0000ms, 0927ms total)
T2E3C 151:259 JLINK_WriteReg(MSP, 0x20000800)  returns 0x00 (0000ms, 0927ms total)
T2E3C 151:259 JLINK_WriteReg(PSP, 0x20000800)  returns 0x00 (0000ms, 0927ms total)
T2E3C 151:259 JLINK_WriteReg(CFBP, 0x00000000)  returns 0x00 (0000ms, 0927ms total)
T2E3C 151:259 JLINK_SetBPEx(Addr = 0x20000000, Type = 0xFFFFFFF2)  returns 0x00000006 (0000ms, 0927ms total)
T2E3C 151:259 JLINK_Go() (0003ms, 0930ms total)
T2E3C 151:262 JLINK_IsHalted() -- CPU_ReadMem(2 bytes @ 0x20000000)  returns TRUE (0006ms, 0936ms total)
T2E3C 151:268 JLINK_ReadReg(R15)  returns 0x20000000 (0000ms, 0930ms total)
T2E3C 151:268 JLINK_ClrBPEx(BPHandle = 0x00000006)  returns 0x00 (0000ms, 0930ms total)
T2E3C 151:268 JLINK_ReadReg(R0)  returns 0x00000000 (0000ms, 0930ms total)
T2E3C 151:335 JLINK_WriteMem(0x20000000, 0x0180 Bytes, ...) -- Data:  00 BE 0A E0 0D 78 2D 06 68 40 08 24 40 00 00 D3 ... -- CPU_WriteMem(384 bytes @ 0x20000000)  returns 0x180 (0005ms, 0935ms total)
T2E3C 151:340 JLINK_WriteReg(R0, 0x08000000)  returns 0x00 (0000ms, 0935ms total)
T2E3C 151:340 JLINK_WriteReg(R1, 0x017D7840)  returns 0x00 (0000ms, 0935ms total)
T2E3C 151:340 JLINK_WriteReg(R2, 0x00000002)  returns 0x00 (0000ms, 0935ms total)
T2E3C 151:340 JLINK_WriteReg(R3, 0x00000000)  returns 0x00 (0000ms, 0935ms total)
T2E3C 151:340 JLINK_WriteReg(R4, 0x00000000)  returns 0x00 (0000ms, 0935ms total)
T2E3C 151:340 JLINK_WriteReg(R5, 0x00000000)  returns 0x00 (0000ms, 0935ms total)
T2E3C 151:340 JLINK_WriteReg(R6, 0x00000000)  returns 0x00 (0000ms, 0935ms total)
T2E3C 151:340 JLINK_WriteReg(R7, 0x00000000)  returns 0x00 (0000ms, 0935ms total)
T2E3C 151:340 JLINK_WriteReg(R8, 0x00000000)  returns 0x00 (0000ms, 0935ms total)
T2E3C 151:340 JLINK_WriteReg(R9, 0x2000017C)  returns 0x00 (0000ms, 0935ms total)
T2E3C 151:340 JLINK_WriteReg(R10, 0x00000000)  returns 0x00 (0000ms, 0935ms total)
T2E3C 151:340 JLINK_WriteReg(R11, 0x00000000)  returns 0x00 (0000ms, 0935ms total)
T2E3C 151:340 JLINK_WriteReg(R12, 0x00000000)  returns 0x00 (0000ms, 0935ms total)
T2E3C 151:340 JLINK_WriteReg(R13, 0x20000800)  returns 0x00 (0000ms, 0935ms total)
T2E3C 151:340 JLINK_WriteReg(R14, 0x20000001)  returns 0x00 (0000ms, 0935ms total)
T2E3C 151:340 JLINK_WriteReg(R15, 0x20000054)  returns 0x00 (0000ms, 0935ms total)
T2E3C 151:340 JLINK_WriteReg(XPSR, 0x01000000)  returns 0x00 (0000ms, 0935ms total)
T2E3C 151:340 JLINK_WriteReg(MSP, 0x20000800)  returns 0x00 (0000ms, 0935ms total)
T2E3C 151:340 JLINK_WriteReg(PSP, 0x20000800)  returns 0x00 (0000ms, 0935ms total)
T2E3C 151:340 JLINK_WriteReg(CFBP, 0x00000000)  returns 0x00 (0000ms, 0935ms total)
T2E3C 151:340 JLINK_SetBPEx(Addr = 0x20000000, Type = 0xFFFFFFF2) -- CPU_ReadMem(2 bytes @ 0x20000000)  returns 0x00000007 (0001ms, 0936ms total)
T2E3C 151:341 JLINK_Go() -- CPU_WriteMem(2 bytes @ 0x20000000) (0003ms, 0939ms total)
T2E3C 151:344 JLINK_IsHalted() -- CPU_ReadMem(2 bytes @ 0x20000000)  returns TRUE (0006ms, 0945ms total)
T2E3C 151:350 JLINK_ReadReg(R15)  returns 0x20000000 (0000ms, 0939ms total)
T2E3C 151:350 JLINK_ClrBPEx(BPHandle = 0x00000007)  returns 0x00 (0000ms, 0939ms total)
T2E3C 151:350 JLINK_ReadReg(R0)  returns 0x00000000 (0000ms, 0939ms total)
T2E3C 151:351 JLINK_WriteMem(0x20000180, 0x0400 Bytes, ...) -- Data:  58 24 00 20 9D 01 00 08 47 1E 00 08 19 0F 00 08 ... -- CPU_WriteMem(1024 bytes @ 0x20000180)  returns 0x400 (0012ms, 0951ms total)
T2E3C 151:363 JLINK_WriteReg(R0, 0x08000000)  returns 0x00 (0000ms, 0951ms total)
T2E3C 151:363 JLINK_WriteReg(R1, 0x00000400)  returns 0x00 (0000ms, 0951ms total)
T2E3C 151:363 JLINK_WriteReg(R2, 0x20000180)  returns 0x00 (0000ms, 0951ms total)
T2E3C 151:363 JLINK_WriteReg(R3, 0x00000000)  returns 0x00 (0000ms, 0951ms total)
T2E3C 151:363 JLINK_WriteReg(R4, 0x00000000)  returns 0x00 (0000ms, 0951ms total)
T2E3C 151:363 JLINK_WriteReg(R5, 0x00000000)  returns 0x00 (0000ms, 0951ms total)
T2E3C 151:363 JLINK_WriteReg(R6, 0x00000000)  returns 0x00 (0000ms, 0951ms total)
T2E3C 151:363 JLINK_WriteReg(R7, 0x00000000)  returns 0x00 (0000ms, 0951ms total)
T2E3C 151:363 JLINK_WriteReg(R8, 0x00000000)  returns 0x00 (0000ms, 0951ms total)
T2E3C 151:363 JLINK_WriteReg(R9, 0x2000017C)  returns 0x00 (0000ms, 0951ms total)
T2E3C 151:363 JLINK_WriteReg(R10, 0x00000000)  returns 0x00 (0000ms, 0951ms total)
T2E3C 151:363 JLINK_WriteReg(R11, 0x00000000)  returns 0x00 (0000ms, 0951ms total)
T2E3C 151:363 JLINK_WriteReg(R12, 0x00000000)  returns 0x00 (0000ms, 0951ms total)
T2E3C 151:363 JLINK_WriteReg(R13, 0x20000800)  returns 0x00 (0000ms, 0951ms total)
T2E3C 151:363 JLINK_WriteReg(R14, 0x20000001)  returns 0x00 (0000ms, 0951ms total)
T2E3C 151:363 JLINK_WriteReg(R15, 0x20000108)  returns 0x00 (0000ms, 0951ms total)
T2E3C 151:363 JLINK_WriteReg(XPSR, 0x01000000)  returns 0x00 (0000ms, 0951ms total)
T2E3C 151:363 JLINK_WriteReg(MSP, 0x20000800)  returns 0x00 (0000ms, 0951ms total)
T2E3C 151:363 JLINK_WriteReg(PSP, 0x20000800)  returns 0x00 (0000ms, 0951ms total)
T2E3C 151:363 JLINK_WriteReg(CFBP, 0x00000000)  returns 0x00 (0000ms, 0951ms total)
T2E3C 151:363 JLINK_SetBPEx(Addr = 0x20000000, Type = 0xFFFFFFF2)  returns 0x00000008 (0000ms, 0951ms total)
T2E3C 151:363 JLINK_Go() (0003ms, 0954ms total)
T2E3C 151:366 JLINK_IsHalted()  returns FALSE (0000ms, 0954ms total)
T2E3C 151:387 JLINK_IsHalted() -- CPU_ReadMem(2 bytes @ 0x20000000)  returns TRUE (0005ms, 0959ms total)
T2E3C 151:392 JLINK_ReadReg(R15)  returns 0x20000000 (0001ms, 0955ms total)
T2E3C 151:393 JLINK_ClrBPEx(BPHandle = 0x00000008)  returns 0x00 (0000ms, 0955ms total)
T2E3C 151:393 JLINK_ReadReg(R0)  returns 0x00000000 (0000ms, 0955ms total)
T2E3C 151:394 JLINK_WriteMem(0x20000180, 0x0400 Bytes, ...) -- Data:  09 06 02 F0 7F 03 06 D5 03 EB 83 01 00 EB C1 01 ... -- CPU_WriteMem(1024 bytes @ 0x20000180)  returns 0x400 (0012ms, 0967ms total)
T2E3C 151:406 JLINK_WriteReg(R0, 0x08000400)  returns 0x00 (0000ms, 0967ms total)
T2E3C 151:406 JLINK_WriteReg(R1, 0x00000400)  returns 0x00 (0000ms, 0967ms total)
T2E3C 151:406 JLINK_WriteReg(R2, 0x20000180)  returns 0x00 (0000ms, 0967ms total)
T2E3C 151:406 JLINK_WriteReg(R3, 0x00000000)  returns 0x00 (0000ms, 0967ms total)
T2E3C 151:406 JLINK_WriteReg(R4, 0x00000000)  returns 0x00 (0000ms, 0967ms total)
T2E3C 151:406 JLINK_WriteReg(R5, 0x00000000)  returns 0x00 (0000ms, 0967ms total)
T2E3C 151:406 JLINK_WriteReg(R6, 0x00000000)  returns 0x00 (0000ms, 0967ms total)
T2E3C 151:406 JLINK_WriteReg(R7, 0x00000000)  returns 0x00 (0000ms, 0967ms total)
T2E3C 151:406 JLINK_WriteReg(R8, 0x00000000)  returns 0x00 (0000ms, 0967ms total)
T2E3C 151:406 JLINK_WriteReg(R9, 0x2000017C)  returns 0x00 (0000ms, 0967ms total)
T2E3C 151:406 JLINK_WriteReg(R10, 0x00000000)  returns 0x00 (0000ms, 0967ms total)
T2E3C 151:406 JLINK_WriteReg(R11, 0x00000000)  returns 0x00 (0000ms, 0967ms total)
T2E3C 151:406 JLINK_WriteReg(R12, 0x00000000)  returns 0x00 (0000ms, 0967ms total)
T2E3C 151:406 JLINK_WriteReg(R13, 0x20000800)  returns 0x00 (0000ms, 0967ms total)
T2E3C 151:406 JLINK_WriteReg(R14, 0x20000001)  returns 0x00 (0000ms, 0967ms total)
T2E3C 151:406 JLINK_WriteReg(R15, 0x20000108)  returns 0x00 (0000ms, 0967ms total)
T2E3C 151:406 JLINK_WriteReg(XPSR, 0x01000000)  returns 0x00 (0000ms, 0967ms total)
T2E3C 151:406 JLINK_WriteReg(MSP, 0x20000800)  returns 0x00 (0000ms, 0967ms total)
T2E3C 151:406 JLINK_WriteReg(PSP, 0x20000800)  returns 0x00 (0000ms, 0967ms total)
T2E3C 151:406 JLINK_WriteReg(CFBP, 0x00000000)  returns 0x00 (0000ms, 0967ms total)
T2E3C 151:406 JLINK_SetBPEx(Addr = 0x20000000, Type = 0xFFFFFFF2)  returns 0x00000009 (0000ms, 0967ms total)
T2E3C 151:406 JLINK_Go() (0003ms, 0970ms total)
T2E3C 151:409 JLINK_IsHalted()  returns FALSE (0000ms, 0970ms total)
T2E3C 151:411 JLINK_IsHalted()  returns FALSE (0000ms, 0970ms total)
T2E3C 151:413 JLINK_IsHalted()  returns FALSE (0000ms, 0970ms total)
T2E3C 151:415 JLINK_IsHalted() -- CPU_ReadMem(2 bytes @ 0x20000000)  returns TRUE (0006ms, 0976ms total)
T2E3C 151:421 JLINK_ReadReg(R15)  returns 0x20000000 (0000ms, 0970ms total)
T2E3C 151:421 JLINK_ClrBPEx(BPHandle = 0x00000009)  returns 0x00 (0000ms, 0970ms total)
T2E3C 151:421 JLINK_ReadReg(R0)  returns 0x00000000 (0000ms, 0970ms total)
T2E3C 151:422 JLINK_WriteMem(0x20000180, 0x0400 Bytes, ...) -- Data:  0B 00 08 61 21 69 48 64 20 69 01 68 21 F4 FE 61 ... -- CPU_WriteMem(1024 bytes @ 0x20000180)  returns 0x400 (0012ms, 0982ms total)
T2E3C 151:434 JLINK_WriteReg(R0, 0x08000800)  returns 0x00 (0000ms, 0982ms total)
T2E3C 151:434 JLINK_WriteReg(R1, 0x00000400)  returns 0x00 (0000ms, 0982ms total)
T2E3C 151:434 JLINK_WriteReg(R2, 0x20000180)  returns 0x00 (0000ms, 0982ms total)
T2E3C 151:434 JLINK_WriteReg(R3, 0x00000000)  returns 0x00 (0000ms, 0982ms total)
T2E3C 151:434 JLINK_WriteReg(R4, 0x00000000)  returns 0x00 (0000ms, 0982ms total)
T2E3C 151:434 JLINK_WriteReg(R5, 0x00000000)  returns 0x00 (0000ms, 0982ms total)
T2E3C 151:434 JLINK_WriteReg(R6, 0x00000000)  returns 0x00 (0000ms, 0982ms total)
T2E3C 151:434 JLINK_WriteReg(R7, 0x00000000)  returns 0x00 (0000ms, 0982ms total)
T2E3C 151:434 JLINK_WriteReg(R8, 0x00000000)  returns 0x00 (0000ms, 0982ms total)
T2E3C 151:434 JLINK_WriteReg(R9, 0x2000017C)  returns 0x00 (0000ms, 0982ms total)
T2E3C 151:434 JLINK_WriteReg(R10, 0x00000000)  returns 0x00 (0000ms, 0982ms total)
T2E3C 151:434 JLINK_WriteReg(R11, 0x00000000)  returns 0x00 (0000ms, 0982ms total)
T2E3C 151:434 JLINK_WriteReg(R12, 0x00000000)  returns 0x00 (0000ms, 0982ms total)
T2E3C 151:434 JLINK_WriteReg(R13, 0x20000800)  returns 0x00 (0000ms, 0982ms total)
T2E3C 151:434 JLINK_WriteReg(R14, 0x20000001)  returns 0x00 (0000ms, 0982ms total)
T2E3C 151:434 JLINK_WriteReg(R15, 0x20000108)  returns 0x00 (0000ms, 0982ms total)
T2E3C 151:434 JLINK_WriteReg(XPSR, 0x01000000)  returns 0x00 (0000ms, 0982ms total)
T2E3C 151:434 JLINK_WriteReg(MSP, 0x20000800)  returns 0x00 (0000ms, 0982ms total)
T2E3C 151:434 JLINK_WriteReg(PSP, 0x20000800)  returns 0x00 (0000ms, 0982ms total)
T2E3C 151:434 JLINK_WriteReg(CFBP, 0x00000000)  returns 0x00 (0000ms, 0982ms total)
T2E3C 151:434 JLINK_SetBPEx(Addr = 0x20000000, Type = 0xFFFFFFF2)  returns 0x0000000A (0000ms, 0982ms total)
T2E3C 151:434 JLINK_Go() (0003ms, 0985ms total)
T2E3C 151:437 JLINK_IsHalted()  returns FALSE (0000ms, 0985ms total)
T2E3C 151:439 JLINK_IsHalted()  returns FALSE (0001ms, 0986ms total)
T2E3C 151:455 JLINK_IsHalted() -- CPU_ReadMem(2 bytes @ 0x20000000)  returns TRUE (0006ms, 0991ms total)
T2E3C 151:461 JLINK_ReadReg(R15)  returns 0x20000000 (0000ms, 0985ms total)
T2E3C 151:461 JLINK_ClrBPEx(BPHandle = 0x0000000A)  returns 0x00 (0000ms, 0985ms total)
T2E3C 151:461 JLINK_ReadReg(R0)  returns 0x00000000 (0000ms, 0985ms total)
T2E3C 151:462 JLINK_WriteMem(0x20000180, 0x0400 Bytes, ...) -- Data:  44 79 10 2C 05 D0 21 44 0A 68 00 68 02 43 0A 60 ... -- CPU_WriteMem(1024 bytes @ 0x20000180)  returns 0x400 (0012ms, 0997ms total)
T2E3C 151:474 JLINK_WriteReg(R0, 0x08000C00)  returns 0x00 (0000ms, 0997ms total)
T2E3C 151:474 JLINK_WriteReg(R1, 0x00000400)  returns 0x00 (0000ms, 0997ms total)
T2E3C 151:474 JLINK_WriteReg(R2, 0x20000180)  returns 0x00 (0000ms, 0997ms total)
T2E3C 151:474 JLINK_WriteReg(R3, 0x00000000)  returns 0x00 (0000ms, 0997ms total)
T2E3C 151:474 JLINK_WriteReg(R4, 0x00000000)  returns 0x00 (0000ms, 0997ms total)
T2E3C 151:474 JLINK_WriteReg(R5, 0x00000000)  returns 0x00 (0000ms, 0997ms total)
T2E3C 151:475 JLINK_WriteReg(R6, 0x00000000)  returns 0x00 (0000ms, 0998ms total)
T2E3C 151:475 JLINK_WriteReg(R7, 0x00000000)  returns 0x00 (0000ms, 0998ms total)
T2E3C 151:475 JLINK_WriteReg(R8, 0x00000000)  returns 0x00 (0000ms, 0998ms total)
T2E3C 151:475 JLINK_WriteReg(R9, 0x2000017C)  returns 0x00 (0000ms, 0998ms total)
T2E3C 151:475 JLINK_WriteReg(R10, 0x00000000)  returns 0x00 (0000ms, 0998ms total)
T2E3C 151:475 JLINK_WriteReg(R11, 0x00000000)  returns 0x00 (0000ms, 0998ms total)
T2E3C 151:475 JLINK_WriteReg(R12, 0x00000000)  returns 0x00 (0000ms, 0998ms total)
T2E3C 151:475 JLINK_WriteReg(R13, 0x20000800)  returns 0x00 (0000ms, 0998ms total)
T2E3C 151:475 JLINK_WriteReg(R14, 0x20000001)  returns 0x00 (0000ms, 0998ms total)
T2E3C 151:475 JLINK_WriteReg(R15, 0x20000108)  returns 0x00 (0000ms, 0998ms total)
T2E3C 151:475 JLINK_WriteReg(XPSR, 0x01000000)  returns 0x00 (0000ms, 0998ms total)
T2E3C 151:475 JLINK_WriteReg(MSP, 0x20000800)  returns 0x00 (0000ms, 0998ms total)
T2E3C 151:475 JLINK_WriteReg(PSP, 0x20000800)  returns 0x00 (0000ms, 0998ms total)
T2E3C 151:475 JLINK_WriteReg(CFBP, 0x00000000)  returns 0x00 (0000ms, 0998ms total)
T2E3C 151:475 JLINK_SetBPEx(Addr = 0x20000000, Type = 0xFFFFFFF2)  returns 0x0000000B (0000ms, 0998ms total)
T2E3C 151:475 JLINK_Go() (0003ms, 1001ms total)
T2E3C 151:478 JLINK_IsHalted()  returns FALSE (0000ms, 1001ms total)
T2E3C 151:489 JLINK_IsHalted() -- CPU_ReadMem(2 bytes @ 0x20000000)  returns TRUE (0006ms, 1007ms total)
T2E3C 151:495 JLINK_ReadReg(R15)  returns 0x20000000 (0000ms, 1001ms total)
T2E3C 151:495 JLINK_ClrBPEx(BPHandle = 0x0000000B)  returns 0x00 (0000ms, 1001ms total)
T2E3C 151:495 JLINK_ReadReg(R0)  returns 0x00000000 (0000ms, 1001ms total)
T2E3C 151:497 JLINK_WriteMem(0x20000180, 0x0400 Bytes, ...) -- Data:  A8 88 6A 89 10 43 08 43 20 80 A8 89 29 89 08 43 ... -- CPU_WriteMem(1024 bytes @ 0x20000180)  returns 0x400 (0012ms, 1013ms total)
T2E3C 151:509 JLINK_WriteReg(R0, 0x08001000)  returns 0x00 (0000ms, 1013ms total)
T2E3C 151:509 JLINK_WriteReg(R1, 0x00000400)  returns 0x00 (0000ms, 1013ms total)
T2E3C 151:509 JLINK_WriteReg(R2, 0x20000180)  returns 0x00 (0000ms, 1013ms total)
T2E3C 151:509 JLINK_WriteReg(R3, 0x00000000)  returns 0x00 (0000ms, 1013ms total)
T2E3C 151:509 JLINK_WriteReg(R4, 0x00000000)  returns 0x00 (0000ms, 1013ms total)
T2E3C 151:509 JLINK_WriteReg(R5, 0x00000000)  returns 0x00 (0000ms, 1013ms total)
T2E3C 151:509 JLINK_WriteReg(R6, 0x00000000)  returns 0x00 (0000ms, 1013ms total)
T2E3C 151:509 JLINK_WriteReg(R7, 0x00000000)  returns 0x00 (0000ms, 1013ms total)
T2E3C 151:509 JLINK_WriteReg(R8, 0x00000000)  returns 0x00 (0000ms, 1013ms total)
T2E3C 151:509 JLINK_WriteReg(R9, 0x2000017C)  returns 0x00 (0000ms, 1013ms total)
T2E3C 151:509 JLINK_WriteReg(R10, 0x00000000)  returns 0x00 (0000ms, 1013ms total)
T2E3C 151:509 JLINK_WriteReg(R11, 0x00000000)  returns 0x00 (0000ms, 1013ms total)
T2E3C 151:510 JLINK_WriteReg(R12, 0x00000000)  returns 0x00 (0000ms, 1013ms total)
T2E3C 151:510 JLINK_WriteReg(R13, 0x20000800)  returns 0x00 (0000ms, 1013ms total)
T2E3C 151:510 JLINK_WriteReg(R14, 0x20000001)  returns 0x00 (0000ms, 1013ms total)
T2E3C 151:510 JLINK_WriteReg(R15, 0x20000108)  returns 0x00 (0000ms, 1013ms total)
T2E3C 151:510 JLINK_WriteReg(XPSR, 0x01000000)  returns 0x00 (0000ms, 1013ms total)
T2E3C 151:510 JLINK_WriteReg(MSP, 0x20000800)  returns 0x00 (0000ms, 1013ms total)
T2E3C 151:510 JLINK_WriteReg(PSP, 0x20000800)  returns 0x00 (0000ms, 1013ms total)
T2E3C 151:510 JLINK_WriteReg(CFBP, 0x00000000)  returns 0x00 (0000ms, 1013ms total)
T2E3C 151:510 JLINK_SetBPEx(Addr = 0x20000000, Type = 0xFFFFFFF2)  returns 0x0000000C (0000ms, 1013ms total)
T2E3C 151:510 JLINK_Go() (0002ms, 1015ms total)
T2E3C 151:512 JLINK_IsHalted()  returns FALSE (0001ms, 1016ms total)
T2E3C 151:514 JLINK_IsHalted()  returns FALSE (0001ms, 1016ms total)
T2E3C 151:516 JLINK_IsHalted()  returns FALSE (0001ms, 1016ms total)
T2E3C 151:518 JLINK_IsHalted() -- CPU_ReadMem(2 bytes @ 0x20000000)  returns TRUE (0006ms, 1021ms total)
T2E3C 151:524 JLINK_ReadReg(R15)  returns 0x20000000 (0000ms, 1015ms total)
T2E3C 151:524 JLINK_ClrBPEx(BPHandle = 0x0000000C)  returns 0x00 (0000ms, 1015ms total)
T2E3C 151:524 JLINK_ReadReg(R0)  returns 0x00000000 (0000ms, 1015ms total)
T2E3C 151:525 JLINK_WriteMem(0x20000180, 0x0400 Bytes, ...) -- Data:  00 F0 A4 F8 03 22 F8 21 88 20 00 F0 B1 F8 00 F0 ... -- CPU_WriteMem(1024 bytes @ 0x20000180)  returns 0x400 (0012ms, 1027ms total)
T2E3C 151:537 JLINK_WriteReg(R0, 0x08001400)  returns 0x00 (0001ms, 1028ms total)
T2E3C 151:538 JLINK_WriteReg(R1, 0x00000400)  returns 0x00 (0000ms, 1028ms total)
T2E3C 151:538 JLINK_WriteReg(R2, 0x20000180)  returns 0x00 (0000ms, 1028ms total)
T2E3C 151:538 JLINK_WriteReg(R3, 0x00000000)  returns 0x00 (0000ms, 1028ms total)
T2E3C 151:538 JLINK_WriteReg(R4, 0x00000000)  returns 0x00 (0000ms, 1028ms total)
T2E3C 151:538 JLINK_WriteReg(R5, 0x00000000)  returns 0x00 (0000ms, 1028ms total)
T2E3C 151:538 JLINK_WriteReg(R6, 0x00000000)  returns 0x00 (0000ms, 1028ms total)
T2E3C 151:538 JLINK_WriteReg(R7, 0x00000000)  returns 0x00 (0000ms, 1028ms total)
T2E3C 151:538 JLINK_WriteReg(R8, 0x00000000)  returns 0x00 (0000ms, 1028ms total)
T2E3C 151:538 JLINK_WriteReg(R9, 0x2000017C)  returns 0x00 (0000ms, 1028ms total)
T2E3C 151:538 JLINK_WriteReg(R10, 0x00000000)  returns 0x00 (0000ms, 1028ms total)
T2E3C 151:538 JLINK_WriteReg(R11, 0x00000000)  returns 0x00 (0000ms, 1028ms total)
T2E3C 151:538 JLINK_WriteReg(R12, 0x00000000)  returns 0x00 (0000ms, 1028ms total)
T2E3C 151:538 JLINK_WriteReg(R13, 0x20000800)  returns 0x00 (0000ms, 1028ms total)
T2E3C 151:538 JLINK_WriteReg(R14, 0x20000001)  returns 0x00 (0000ms, 1028ms total)
T2E3C 151:538 JLINK_WriteReg(R15, 0x20000108)  returns 0x00 (0000ms, 1028ms total)
T2E3C 151:538 JLINK_WriteReg(XPSR, 0x01000000)  returns 0x00 (0000ms, 1028ms total)
T2E3C 151:538 JLINK_WriteReg(MSP, 0x20000800)  returns 0x00 (0000ms, 1028ms total)
T2E3C 151:538 JLINK_WriteReg(PSP, 0x20000800)  returns 0x00 (0000ms, 1028ms total)
T2E3C 151:538 JLINK_WriteReg(CFBP, 0x00000000)  returns 0x00 (0000ms, 1028ms total)
T2E3C 151:538 JLINK_SetBPEx(Addr = 0x20000000, Type = 0xFFFFFFF2)  returns 0x0000000D (0000ms, 1028ms total)
T2E3C 151:538 JLINK_Go() (0003ms, 1031ms total)
T2E3C 151:541 JLINK_IsHalted()  returns FALSE (0000ms, 1031ms total)
T2E3C 151:545 JLINK_IsHalted() -- CPU_ReadMem(2 bytes @ 0x20000000)  returns TRUE (0006ms, 1037ms total)
T2E3C 151:551 JLINK_ReadReg(R15)  returns 0x20000000 (0000ms, 1031ms total)
T2E3C 151:551 JLINK_ClrBPEx(BPHandle = 0x0000000D)  returns 0x00 (0000ms, 1031ms total)
T2E3C 151:551 JLINK_ReadReg(R0)  returns 0x00000000 (0000ms, 1031ms total)
T2E3C 151:552 JLINK_WriteMem(0x20000180, 0x0400 Bytes, ...) -- Data:  1C B5 01 21 78 20 00 F0 79 FB 4C F2 33 70 00 90 ... -- CPU_WriteMem(1024 bytes @ 0x20000180)  returns 0x400 (0012ms, 1043ms total)
T2E3C 151:564 JLINK_WriteReg(R0, 0x08001800)  returns 0x00 (0000ms, 1043ms total)
T2E3C 151:564 JLINK_WriteReg(R1, 0x00000400)  returns 0x00 (0001ms, 1044ms total)
T2E3C 151:565 JLINK_WriteReg(R2, 0x20000180)  returns 0x00 (0000ms, 1044ms total)
T2E3C 151:565 JLINK_WriteReg(R3, 0x00000000)  returns 0x00 (0000ms, 1044ms total)
T2E3C 151:565 JLINK_WriteReg(R4, 0x00000000)  returns 0x00 (0000ms, 1044ms total)
T2E3C 151:565 JLINK_WriteReg(R5, 0x00000000)  returns 0x00 (0000ms, 1044ms total)
T2E3C 151:565 JLINK_WriteReg(R6, 0x00000000)  returns 0x00 (0000ms, 1044ms total)
T2E3C 151:565 JLINK_WriteReg(R7, 0x00000000)  returns 0x00 (0000ms, 1044ms total)
T2E3C 151:565 JLINK_WriteReg(R8, 0x00000000)  returns 0x00 (0000ms, 1044ms total)
T2E3C 151:565 JLINK_WriteReg(R9, 0x2000017C)  returns 0x00 (0000ms, 1044ms total)
T2E3C 151:565 JLINK_WriteReg(R10, 0x00000000)  returns 0x00 (0000ms, 1044ms total)
T2E3C 151:565 JLINK_WriteReg(R11, 0x00000000)  returns 0x00 (0000ms, 1044ms total)
T2E3C 151:565 JLINK_WriteReg(R12, 0x00000000)  returns 0x00 (0000ms, 1044ms total)
T2E3C 151:565 JLINK_WriteReg(R13, 0x20000800)  returns 0x00 (0000ms, 1044ms total)
T2E3C 151:565 JLINK_WriteReg(R14, 0x20000001)  returns 0x00 (0000ms, 1044ms total)
T2E3C 151:565 JLINK_WriteReg(R15, 0x20000108)  returns 0x00 (0000ms, 1044ms total)
T2E3C 151:565 JLINK_WriteReg(XPSR, 0x01000000)  returns 0x00 (0000ms, 1044ms total)
T2E3C 151:565 JLINK_WriteReg(MSP, 0x20000800)  returns 0x00 (0000ms, 1044ms total)
T2E3C 151:565 JLINK_WriteReg(PSP, 0x20000800)  returns 0x00 (0000ms, 1044ms total)
T2E3C 151:565 JLINK_WriteReg(CFBP, 0x00000000)  returns 0x00 (0000ms, 1044ms total)
T2E3C 151:565 JLINK_SetBPEx(Addr = 0x20000000, Type = 0xFFFFFFF2)  returns 0x0000000E (0000ms, 1044ms total)
T2E3C 151:565 JLINK_Go() (0003ms, 1047ms total)
T2E3C 151:568 JLINK_IsHalted()  returns FALSE (0000ms, 1047ms total)
T2E3C 151:576 JLINK_IsHalted() -- CPU_ReadMem(2 bytes @ 0x20000000)  returns TRUE (0006ms, 1053ms total)
T2E3C 151:582 JLINK_ReadReg(R15)  returns 0x20000000 (0000ms, 1047ms total)
T2E3C 151:582 JLINK_ClrBPEx(BPHandle = 0x0000000E)  returns 0x00 (0000ms, 1047ms total)
T2E3C 151:582 JLINK_ReadReg(R0)  returns 0x00000000 (0000ms, 1047ms total)
T2E3C 151:583 JLINK_WriteMem(0x20000180, 0x0400 Bytes, ...) -- Data:  88 68 28 B1 60 78 18 B9 01 21 28 46 FE F7 61 FC ... -- CPU_WriteMem(1024 bytes @ 0x20000180)  returns 0x400 (0012ms, 1059ms total)
T2E3C 151:595 JLINK_WriteReg(R0, 0x08001C00)  returns 0x00 (0000ms, 1059ms total)
T2E3C 151:595 JLINK_WriteReg(R1, 0x00000400)  returns 0x00 (0000ms, 1059ms total)
T2E3C 151:595 JLINK_WriteReg(R2, 0x20000180)  returns 0x00 (0000ms, 1059ms total)
T2E3C 151:595 JLINK_WriteReg(R3, 0x00000000)  returns 0x00 (0000ms, 1059ms total)
T2E3C 151:595 JLINK_WriteReg(R4, 0x00000000)  returns 0x00 (0000ms, 1059ms total)
T2E3C 151:595 JLINK_WriteReg(R5, 0x00000000)  returns 0x00 (0000ms, 1059ms total)
T2E3C 151:595 JLINK_WriteReg(R6, 0x00000000)  returns 0x00 (0000ms, 1059ms total)
T2E3C 151:595 JLINK_WriteReg(R7, 0x00000000)  returns 0x00 (0000ms, 1059ms total)
T2E3C 151:595 JLINK_WriteReg(R8, 0x00000000)  returns 0x00 (0000ms, 1059ms total)
T2E3C 151:595 JLINK_WriteReg(R9, 0x2000017C)  returns 0x00 (0000ms, 1059ms total)
T2E3C 151:595 JLINK_WriteReg(R10, 0x00000000)  returns 0x00 (0000ms, 1059ms total)
T2E3C 151:595 JLINK_WriteReg(R11, 0x00000000)  returns 0x00 (0000ms, 1059ms total)
T2E3C 151:595 JLINK_WriteReg(R12, 0x00000000)  returns 0x00 (0000ms, 1059ms total)
T2E3C 151:595 JLINK_WriteReg(R13, 0x20000800)  returns 0x00 (0000ms, 1059ms total)
T2E3C 151:595 JLINK_WriteReg(R14, 0x20000001)  returns 0x00 (0000ms, 1059ms total)
T2E3C 151:595 JLINK_WriteReg(R15, 0x20000108)  returns 0x00 (0000ms, 1059ms total)
T2E3C 151:595 JLINK_WriteReg(XPSR, 0x01000000)  returns 0x00 (0000ms, 1059ms total)
T2E3C 151:595 JLINK_WriteReg(MSP, 0x20000800)  returns 0x00 (0000ms, 1059ms total)
T2E3C 151:596 JLINK_WriteReg(PSP, 0x20000800)  returns 0x00 (0000ms, 1060ms total)
T2E3C 151:596 JLINK_WriteReg(CFBP, 0x00000000)  returns 0x00 (0000ms, 1060ms total)
T2E3C 151:596 JLINK_SetBPEx(Addr = 0x20000000, Type = 0xFFFFFFF2)  returns 0x0000000F (0000ms, 1060ms total)
T2E3C 151:596 JLINK_Go() (0002ms, 1062ms total)
T2E3C 151:598 JLINK_IsHalted()  returns FALSE (0001ms, 1063ms total)
T2E3C 151:608 JLINK_IsHalted() -- CPU_ReadMem(2 bytes @ 0x20000000)  returns TRUE (0005ms, 1067ms total)
T2E3C 151:613 JLINK_ReadReg(R15)  returns 0x20000000 (0000ms, 1062ms total)
T2E3C 151:613 JLINK_ClrBPEx(BPHandle = 0x0000000F)  returns 0x00 (0000ms, 1062ms total)
T2E3C 151:613 JLINK_ReadReg(R0)  returns 0x00000000 (0001ms, 1063ms total)
T2E3C 151:614 JLINK_WriteMem(0x20000180, 0x0400 Bytes, ...) -- Data:  0C 4B 5C 5C 01 68 E1 40 41 60 14 68 07 25 05 EA ... -- CPU_WriteMem(1024 bytes @ 0x20000180)  returns 0x400 (0013ms, 1076ms total)
T2E3C 151:627 JLINK_WriteReg(R0, 0x08002000)  returns 0x00 (0000ms, 1076ms total)
T2E3C 151:627 JLINK_WriteReg(R1, 0x00000400)  returns 0x00 (0000ms, 1076ms total)
T2E3C 151:627 JLINK_WriteReg(R2, 0x20000180)  returns 0x00 (0000ms, 1076ms total)
T2E3C 151:627 JLINK_WriteReg(R3, 0x00000000)  returns 0x00 (0000ms, 1076ms total)
T2E3C 151:627 JLINK_WriteReg(R4, 0x00000000)  returns 0x00 (0000ms, 1076ms total)
T2E3C 151:627 JLINK_WriteReg(R5, 0x00000000)  returns 0x00 (0000ms, 1076ms total)
T2E3C 151:627 JLINK_WriteReg(R6, 0x00000000)  returns 0x00 (0000ms, 1076ms total)
T2E3C 151:627 JLINK_WriteReg(R7, 0x00000000)  returns 0x00 (0000ms, 1076ms total)
T2E3C 151:627 JLINK_WriteReg(R8, 0x00000000)  returns 0x00 (0000ms, 1076ms total)
T2E3C 151:627 JLINK_WriteReg(R9, 0x2000017C)  returns 0x00 (0000ms, 1076ms total)
T2E3C 151:627 JLINK_WriteReg(R10, 0x00000000)  returns 0x00 (0000ms, 1076ms total)
T2E3C 151:627 JLINK_WriteReg(R11, 0x00000000)  returns 0x00 (0000ms, 1076ms total)
T2E3C 151:627 JLINK_WriteReg(R12, 0x00000000)  returns 0x00 (0000ms, 1076ms total)
T2E3C 151:627 JLINK_WriteReg(R13, 0x20000800)  returns 0x00 (0000ms, 1076ms total)
T2E3C 151:627 JLINK_WriteReg(R14, 0x20000001)  returns 0x00 (0000ms, 1076ms total)
